Title: // Class-D RF Power Amplifier - 300W, 13.56 MHz
Date: 8:39:26 PM, Sat Jun 27, 2026
Plotname: Transient Analysis `tran': time = (0 s -> 3 us)
Flags: real
No. Variables:       13
No. Points:    16818
Variables:	0	time	s
		1	L1:i	A plot=0 grid=0
		2	M1:vgs	V plot=0 grid=0
		3	M1:vds	V plot=0 grid=0
		4	M1:id	A plot=0 grid=0
		5	M2:vgs	V plot=0 grid=0
		6	M2:vds	V plot=0 grid=0
		7	M2:id	A plot=0 grid=0
		8	Vdd:i	A plot=0 grid=0
		9	mid	V plot=0 grid=0
		10	lc_out	V plot=0 grid=0
		11	rload	V plot=0 grid=0
		12	vdd	V plot=0 grid=0
Values:
 0	0	0	-33.391
	39.109	2.859e-12	0
	33.391	2.859e-12	-4.1968e-11
	33.391	23.391	0
	72.5
 1	5.23858225095302e-11	0	-33.4496480712266
	39.0503519287734	2.859e-12	0.261929112547651
	33.4496480712266	2.859e-12	-4.19093519287734e-11
	33.4496480712266	23.4496480712266	0
	72.5
 2	9.39975982357548e-11	0	-33.496245128504
	39.003754871496	2.859e-12	0.469987991178774
	33.496245128504	2.859e-12	-4.1862754871496e-11
	33.496245128504	23.496245128504	0
	72.5
 3	1.64894094647354e-10	0	-33.5756496816643
	38.9243503183357	2.859e-12	0.824470473236768
	33.5756496816643	2.859e-12	-4.17833503183357e-11
	33.5756496816643	23.5756496816643	0
	72.5
 4	3.06687087470551e-10	0	-33.7345127929107
	38.7654872070893	2.859e-12	1.53343543735276
	33.7345127929107	2.859e-12	-4.16244872070893e-11
	33.7345127929107	23.7345127929107	0
	72.5
 5	5.06687087470551e-10	0	-33.9587120682818
	38.5412879317182	2.859e-12	2.53343543735276
	33.9587120682818	2.859e-12	-4.14002879317182e-11
	33.9587120682818	23.9587120682818	0
	72.5
 6	7.06687087470551e-10	0	-34.1418757981781
	38.3581242018219	2.859e-12	3.53343543735276
	34.1418757981781	0.768742935809831	-4.12171242018219e-11
	34.1418757981781	24.1418757981781	0
	72.5
 7	9.06687087470551e-10	0	-33.8159110248788
	38.6840889751212	2.859e-12	4.53343543735276
	33.8159110248788	9.50411025237036	-4.15430889751212e-11
	33.8159110248788	23.8159110248787	0
	72.5
 8	1e-09	0	-33.261434765656
	39.238565234344	2.859e-12	5
	33.261434765656	16.9098508576029	-4.2097565234344e-11
	33.261434765656	23.261434765656	0
	72.5
 9	1.00083341666667e-09	0	-33.25480478975
	39.24519521025	2.859e-12	5.00416708333333
	33.25480478975	16.9855413315998	-4.210419521025e-11
	33.25480478975	23.3381464564167	0
	72.5
 10	1.00250025e-09	0	-33.2414776043497
	39.2585223956503	2.859e-12	5.01250125
	33.2414776043497	17.137429344533	-4.21175223956503e-11
	33.2414776043497	23.4915026043497	0
	72.5
 11	1.00583391666667e-09	0	-33.2144172617499
	39.2855827382501	2.859e-12	5.02916958333333
	33.2144172617499	17.4432336301573	-4.21445827382502e-11
	33.2144172617499	23.7978089284165	0
	72.5
 12	1.01250125e-09	0	-33.1586550916931
	39.3413449083069	2.859e-12	5.06250625
	33.1586550916931	18.0629552404371	-4.22003449083069e-11
	33.1586550916931	24.4087800916931	0
	72.5
 13	1.02583591666667e-09	0	-33.0404242714564
	39.4595757285436	2.859e-12	5.12917958333333
	33.0404242714564	19.3348506171209	-4.23185757285436e-11
	33.0404242714564	25.6240159381231	0
	72.5
 14	1.05250525e-09	0	-32.7760165308939
	39.7239834691061	2.859e-12	5.26252625
	32.7760165308939	22.0084499949865	-4.25829834691061e-11
	32.7760165308939	28.0265415308939	0
	72.5
 15	1.1e-09	0	-32.2061843675579
	40.2938156324421	2.859e-12	5.5
	32.2061843675579	27.1983717576029	-4.31528156324421e-11
	32.2061843675579	32.2061843675579	0
	72.5
 16	1.14379706801949e-09	0	-31.4983726713917
	41.0016273286083	2.859e-12	5.71898534009743
	31.4983726713917	32.4707143992719	-4.38606273286083e-11
	31.4983726713917	31.4983726713917	0
	72.5
 17	1.22366365014784e-09	0	-29.9831849078024
	42.5168150921976	2.859e-12	6.1183182507392
	29.9831849078024	43.286845064365	-4.53758150921976e-11
	29.9831849078024	29.9831849078024	0
	72.5
 18	1.30502373910715e-09	0	-27.9465837999154
	44.5534162000846	2.859e-12	6.52511869553573
	27.9465837999154	55.901250047509	-4.74124162000846e-11
	27.9465837999154	27.9465837999154	0
	72.5
 19	1.40247784580052e-09	0	-24.7719944472231
	47.7280055527768	2.859e-12	7.0123892290026
	24.7719944472231	73.1312029851427	-5.05870055527769e-11
	24.7719944472231	24.7719944472231	0
	72.5
 20	1.55208023249487e-09	0	-18.1702404429803
	54.3297595570197	2.859e-12	7.76040116247436
	18.1702404429803	104.078006341729	-5.71887595570197e-11
	18.1702404429803	18.1702404429803	0
	72.5
 21	1.69834254953281e-09	0	-9.70844791771215
	62.7915520822879	2.859e-12	8.49171274766407
	9.70844791771215	139.599065976884	-6.56505520822878e-11
	9.70844791771215	9.70844791771215	0
	72.5
 22	1.73604973084121e-09	0	-7.27785335976695
	65.222146640233	2.859e-12	8.68024865420606
	7.27785335976695	149.600608706785	-6.80811466402331e-11
	7.27785335976695	7.27785335976695	0
	72.5
 23	1.76737200873836e-09	0	-5.2408505538561
	67.2591494461439	2.859e-12	8.83686004369178
	5.2408505538561	157.141809170206	-7.01181494461439e-11
	5.2408505538561	5.2408505538561	0
	72.5
 24	1.78669542353969e-09	0	-4.12452375977404
	68.375476240226	2.859e-12	8.93347711769847
	4.12452375977404	149.957226424042	-7.12344762402259e-11
	4.12452375977404	4.12452375977404	0
	72.5
 25	1.81078719690576e-09	0	-2.9767216904829
	69.5232783095171	2.859e-12	9.05393598452881
	2.9767216904829	128.344795386156	-7.23822783095171e-11
	2.9767216904829	2.9767216904829	0
	72.5
 26	1.83791747575105e-09	0	-2.00905394206697
	70.490946057933	2.859e-12	9.18958737875523
	2.00905394206697	98.7370439738438	-7.3349946057933e-11
	2.00905394206697	2.00905394206697	0
	72.5
 27	1.87375903683887e-09	0	-1.17206695657977
	71.3279330434202	2.859e-12	9.36879518419434
	1.17206695657977	64.4213527301594	-7.41869330434202e-11
	1.17206695657977	1.17206695657977	0
	72.5
 28	1.91171551958383e-09	0	-0.66522928464886
	71.8347707153511	2.859e-12	9.55857759791916
	0.66522928464886	39.4333766660462	-7.46937707153511e-11
	0.66522928464886	0.66522928464886	0
	72.5
 29	1.94601334499072e-09	0	-0.408821323614526
	72.0911786763855	2.859e-12	9.73006672495358
	0.408821323614526	25.4266402687976	-7.49501786763855e-11
	0.408821323614526	0.408821323614526	0
	72.5
 30	1.97300667249536e-09	0	-0.286009827308572
	72.2139901726914	2.859e-12	9.86503336247679
	0.286009827308572	18.3350675757427	-7.50729901726914e-11
	0.286009827308572	0.286009827308572	0
	72.5
 31	2e-09	0	-0.205429062889305
	72.2945709371107	2.859e-12	10
	0.205429062889305	13.5197641209287	-7.51535709371107e-11
	0.205429062889305	0.205429062889305	0
	72.5
 32	2.02273450998778e-09	0	-0.150935796599829
	72.3490642034002	2.859e-12	10
	0.150935796599829	9.97346537025224	-7.52080642034002e-11
	0.150935796599829	0.150935796599829	0
	72.5
 33	2.0490974261469e-09	0	-0.0992856011579932
	72.400714398842	2.859e-12	10
	0.0992856011579932	6.58550557165643	-7.5259714398842e-11
	0.0992856011579932	0.0992856011579932	0
	72.5
 34	2.07538793633789e-09	0	-0.0656509653589808
	72.434349034641	2.859e-12	10
	0.0656509653589808	4.36530360239499	-7.5293349034641e-11
	0.0656509653589808	0.0656509653589808	0
	72.5
 35	2.12796895671987e-09	0	-0.0278612022107603
	72.4721387977892	2.859e-12	10
	0.0278612022107603	1.85768802058673	-7.53311387977892e-11
	0.0278612022107603	0.0278612022107603	0
	72.5
 36	2.20376300417777e-09	0	-0.00744672331640864
	72.4925532766836	2.859e-12	10
	0.00744672331640864	0.497261463211836	-7.53515532766836e-11
	0.00744672331640864	0.00744672331640864	0
	72.5
 37	2.30473132864966e-09	0	-0.000980803089445513
	72.4990191969106	2.859e-12	10
	0.000980803089445513	0.0655248487833748	-7.53580191969106e-11
	0.000980803089445513	0.000980803089445513	0
	72.5
 38	2.43776825720762e-09	0	4.52210812776624e-06
	72.5000045221081	2.859e-12	10.0000045221081
	4.52210812776624e-06	0.000302131715939011	-7.53590045221081e-11
	-4.52210812776624e-06	-4.52210812776624e-06	0
	72.5
 39	2.63776825720762e-09	0	-1.01106530914159e-06
	72.4999989889347	2.859e-12	10
	1.01106530914159e-06	6.75514085517572e-05	-7.53589989889347e-11
	1.01106530914159e-06	1.01106530914159e-06	0
	72.5
 40	2.83776825720762e-09	0	5.708751904586e-07
	72.5000005708752	2.859e-12	10.0000005708752
	5.708751904586e-07	3.81413814892413e-05	-7.53590005708752e-11
	-5.708751904586e-07	-5.708751904586e-07	0
	72.5
 41	3.03776825720762e-09	0	-1.17658360354276e-07
	72.4999998823416	2.859e-12	10
	1.17658360354276e-07	7.86100404712543e-06	-7.53589998823416e-11
	1.17658360354276e-07	1.17658360354276e-07	0
	72.5
 42	3.23776825720762e-09	0	2.42511239678696e-08
	72.5000000242511	2.859e-12	10.0000000242511
	2.42511239678696e-08	1.62026892993486e-06	-7.53590000242511e-11
	-2.42511239678696e-08	-2.42511239678696e-08	0
	72.5
 43	3.43776825720762e-09	0	-4.99975741748753e-09
	72.4999999950002	2.859e-12	10
	4.99975741748753e-09	3.34044376427746e-07	-7.53589999950002e-11
	4.99975741748753e-09	4.99975741748753e-09	0
	72.5
 44	3.63776825720762e-09	0	1.02922919813764e-09
	72.5000000010292	2.859e-12	10.0000000010292
	1.02922919813764e-09	6.8764981405098e-08	-7.53590000010292e-11
	-1.02922919813764e-09	-1.02922919813764e-09	0
	72.5
 45	3.83776825720762e-09	0	1.00363959453202e-09
	72.5000000010036	2.859e-12	10.0000000010036
	1.00363959453202e-09	6.70552858198801e-08	-7.53590000010036e-11
	-1.00363959453202e-09	-1.00363959453202e-09	0
	72.5
 46	4.03776825720762e-09	0	-2.08175619627544e-10
	72.4999999997918	2.859e-12	10
	2.08175619627544e-10	1.39086538132803e-08	-7.53589999997918e-11
	2.08175619627544e-10	2.08175619627544e-10	0
	72.5
 47	4.23776825720762e-09	0	4.1599799888443e-11
	72.5000000000416	2.859e-12	10.0000000000416
	4.1599799888443e-11	2.7793706890117e-09	-7.53590000000416e-11
	-4.1599799888443e-11	-4.1599799888443e-11	0
	72.5
 48	4.43776825720762e-09	0	-9.88329826810588e-12
	72.4999999999901	2.859e-12	10
	9.88329826810588e-12	6.60324078258564e-10	-7.53589999999901e-11
	9.88329826810588e-12	9.88329826810588e-12	0
	72.5
 49	4.63776825720762e-09	0	7.28141749681117e-13
	72.5000000000007	2.859e-12	10.0000000000007
	7.28141749681117e-13	4.86486916266538e-11	-7.53590000000007e-11
	-7.28141749681117e-13	-7.28141749681117e-13	0
	72.5
 50	4.83776825720762e-09	0	-1.45888989100163e-12
	72.4999999999985	2.859e-12	10
	1.45888989100163e-12	9.74715217960938e-11	-7.53589999999985e-11
	1.45888989100163e-12	1.45888989100163e-12	0
	72.5
 51	5.03776825720762e-09	0	-1.00811137008587e-12
	72.499999999999	2.859e-12	10
	1.00811137008587e-12	6.73540546056936e-11	-7.5358999999999e-11
	1.00811137008587e-12	1.00811137008587e-12	0
	72.5
 52	5.23776825720762e-09	0	-1.01006063197832e-12
	72.499999999999	2.859e-12	10
	1.01006063197832e-12	6.74842889189258e-11	-7.53021565811382e-11
	1.01006063197832e-12	1.01006063197832e-12	0
	72.5
 53	5.43776825720762e-09	0	-1.10048902436368e-12
	72.4999999999989	2.859e-12	10
	1.10048902436368e-12	7.3526001233022e-11	-7.54726868377205e-11
	1.10048902436368e-12	1.10048902436368e-12	0
	72.5
 54	5.63776825720762e-09	0	-1.08194713277474e-12
	72.4999999999989	2.859e-12	10
	1.08194713277474e-12	7.2287178206487e-11	-7.52453131622773e-11
	1.08194713277474e-12	1.08194713277474e-12	0
	72.5
 55	5.83776825720762e-09	0	-1.08571553615149e-12
	72.4999999999989	2.859e-12	10
	1.08571553615149e-12	7.25389532130446e-11	-7.54726868377205e-11
	1.08571553615149e-12	1.08571553615149e-12	0
	72.5
 56	6.03776825720762e-09	0	-1.08494099975276e-12
	72.4999999999989	2.859e-12	10
	1.08494099975276e-12	7.24872047967065e-11	-7.52453131622773e-11
	1.08494099975276e-12	1.08494099975276e-12	0
	72.5
 57	6.23776825720762e-09	0	-1.08512634959934e-12
	72.4999999999989	2.859e-12	10
	1.08512634959934e-12	7.24995884123048e-11	-7.54726868377205e-11
	1.08512634959934e-12	1.08512634959934e-12	0
	72.5
 58	6.43776825720762e-09	0	-1.08519984731773e-12
	72.4999999999989	2.859e-12	10
	1.08519984731773e-12	7.2504498950451e-11	-7.52453131622773e-11
	1.08519984731773e-12	1.08519984731773e-12	0
	72.5
 59	6.63776825720762e-09	0	-1.08514401450751e-12
	72.4999999999989	2.859e-12	10
	1.08514401450751e-12	7.25007686422128e-11	-7.54726868377205e-11
	1.08514401450751e-12	1.08514401450751e-12	0
	72.5
 60	6.83776825720762e-09	0	-1.08519184731598e-12
	72.4999999999989	2.859e-12	10
	1.08519184731598e-12	7.25039644533992e-11	-7.52453131622773e-11
	1.08519184731598e-12	1.08519184731598e-12	0
	72.5
 61	7.03776825720762e-09	0	-1.08508792971657e-12
	72.4999999999989	2.859e-12	10
	1.08508792971657e-12	7.24970214986101e-11	-7.54726868377205e-11
	1.08508792971657e-12	1.08508792971657e-12	0
	72.5
 62	7.23776825720762e-09	0	-1.085269868444e-12
	72.4999999999989	2.859e-12	10
	1.085269868444e-12	7.25091772101176e-11	-7.52453131622773e-11
	1.085269868444e-12	1.085269868444e-12	0
	72.5
 63	7.43776825720762e-09	0	-1.0851161811073e-12
	72.4999999999989	2.859e-12	10
	1.0851161811073e-12	7.24989090338274e-11	-7.54726868377205e-11
	1.0851161811073e-12	1.0851161811073e-12	0
	72.5
 64	7.63776825720762e-09	0	-1.08518833900404e-12
	72.4999999999989	2.859e-12	10
	1.08518833900404e-12	7.25037300556519e-11	-7.52453131622773e-11
	1.08518833900404e-12	1.08518833900404e-12	0
	72.5
 65	7.83776825720762e-09	0	-1.08514469094387e-12
	72.4999999999989	2.859e-12	10
	1.08514469094387e-12	7.25008138363582e-11	-7.54726868377205e-11
	1.08514469094387e-12	1.08514469094387e-12	0
	72.5
 66	8.03776825720762e-09	0	-1.08520232092307e-12
	72.4999999999989	2.859e-12	10
	1.08520232092307e-12	7.25046642172599e-11	-7.52453131622773e-11
	1.08520232092307e-12	1.08520232092307e-12	0
	72.5
 67	8.23776825720762e-09	0	-1.08509502830338e-12
	72.4999999999989	2.859e-12	10
	1.08509502830338e-12	7.24974957702209e-11	-7.54726868377205e-11
	1.08509502830338e-12	1.08509502830338e-12	0
	72.5
 68	8.43776825720762e-09	0	-1.08526611789114e-12
	72.4999999999989	2.859e-12	10
	1.08526611789114e-12	7.25089266277418e-11	-7.52453131622773e-11
	1.08526611789114e-12	1.08526611789114e-12	0
	72.5
 69	8.63776825720762e-09	0	-1.08510741909138e-12
	72.4999999999989	2.859e-12	10
	1.08510741909138e-12	7.24983236249965e-11	-7.54726868377205e-11
	1.08510741909138e-12	1.08510741909138e-12	0
	72.5
 70	8.83776825720762e-09	0	-1.08518518895333e-12
	72.4999999999989	2.859e-12	10
	1.08518518895333e-12	7.25035195940964e-11	-7.52453131622773e-11
	1.08518518895333e-12	1.08518518895333e-12	0
	72.5
 71	9.03776825720762e-09	0	-1.08514988506178e-12
	72.4999999999989	2.859e-12	10
	1.08514988506178e-12	7.25011608663709e-11	-7.54726868377205e-11
	1.08514988506178e-12	1.08514988506178e-12	0
	72.5
 72	9.23776825720762e-09	0	-1.08520877935864e-12
	72.4999999999989	2.859e-12	10
	1.08520877935864e-12	7.2505095719011e-11	-7.52453131622773e-11
	1.08520877935864e-12	1.08520877935864e-12	0
	72.5
 73	9.43776825720762e-09	0	-1.08509528349807e-12
	72.4999999999989	2.859e-12	10
	1.08509528349807e-12	7.24975128203187e-11	-7.54726868377205e-11
	1.08509528349807e-12	1.08509528349807e-12	0
	72.5
 74	9.63776825720762e-09	0	-1.08526079267852e-12
	72.4999999999989	2.859e-12	10
	1.08526079267852e-12	7.25085708390139e-11	-7.52453131622773e-11
	1.08526079267852e-12	1.08526079267852e-12	0
	72.5
 75	9.83776825720762e-09	0	-1.0851033374249e-12
	72.4999999999989	2.859e-12	10
	1.0851033374249e-12	7.24980509202189e-11	-7.54726868377205e-11
	1.0851033374249e-12	1.0851033374249e-12	0
	72.5
 76	1.00377682572076e-08	0	-1.08518677109662e-12
	72.4999999999989	2.859e-12	10
	1.08518677109662e-12	7.25036253004386e-11	-7.52453131622773e-11
	1.08518677109662e-12	1.08518677109662e-12	0
	72.5
 77	1.02377682572076e-08	0	-1.0851545158694e-12
	72.4999999999989	2.859e-12	10
	1.0851545158694e-12	7.25014702604301e-11	-7.54726868377205e-11
	1.0851545158694e-12	1.0851545158694e-12	0
	72.5
 78	1.04377682572076e-08	0	-1.08521078960089e-12
	72.4999999999989	2.859e-12	10
	1.08521078960089e-12	7.25052300275513e-11	-7.52453131622773e-11
	1.08521078960089e-12	1.08521078960089e-12	0
	72.5
 79	1.06377682572076e-08	0	-1.08509279088186e-12
	72.4999999999989	2.859e-12	10
	1.08509279088186e-12	7.24973462833528e-11	-7.54726868377205e-11
	1.08509279088186e-12	1.08509279088186e-12	0
	72.5
 80	1.08377682572076e-08	0	-1.08525726872247e-12
	72.4999999999989	2.859e-12	10
	1.08525726872247e-12	7.25083353960513e-11	-7.52453131622773e-11
	1.08525726872247e-12	1.08525726872247e-12	0
	72.5
 81	1.10377682572076e-08	0	-1.08510290722856e-12
	72.4999999999989	2.859e-12	10
	1.08510290722856e-12	7.24980221778903e-11	-7.54726868377205e-11
	1.08510290722856e-12	1.08510290722856e-12	0
	72.5
 82	1.12377682572076e-08	0	-1.08518946579985e-12
	72.4999999999989	2.859e-12	10
	1.08518946579985e-12	7.25038053392652e-11	-7.52453131622773e-11
	1.08518946579985e-12	1.08518946579985e-12	0
	72.5
 83	1.14377682572076e-08	0	-1.08515683827301e-12
	72.4999999999989	2.859e-12	10
	1.08515683827301e-12	7.25016254251313e-11	-7.54726868377205e-11
	1.08515683827301e-12	1.08515683827301e-12	0
	72.5
 84	1.16377682572076e-08	0	-1.08521017549433e-12
	72.4999999999989	2.859e-12	10
	1.08521017549433e-12	7.25051889977921e-11	-7.52453131622773e-11
	1.08521017549433e-12	1.08521017549433e-12	0
	72.5
 85	1.18377682572076e-08	0	-1.08509036365206e-12
	72.4999999999989	2.859e-12	10
	1.08509036365206e-12	7.2497184114992e-11	-7.54726868377205e-11
	1.08509036365206e-12	1.08509036365206e-12	0
	72.5
 86	1.20377682572076e-08	0	-1.08525603146872e-12
	72.4999999999989	2.859e-12	10
	1.08525603146872e-12	7.2508252732509e-11	-7.52453131622773e-11
	1.08525603146872e-12	1.08525603146872e-12	0
	72.5
 87	1.22377682572076e-08	0	-1.08510408051733e-12
	72.4999999999989	2.859e-12	10
	1.08510408051733e-12	7.24981005677969e-11	-7.54726868377205e-11
	1.08510408051733e-12	1.08510408051733e-12	0
	72.5
 88	1.24377682572076e-08	0	-1.08519137286556e-12
	72.4999999999989	2.859e-12	10
	1.08519137286556e-12	7.25039327543624e-11	-7.52453131622773e-11
	1.08519137286556e-12	1.08519137286556e-12	0
	72.5
 89	1.26377682572076e-08	0	-1.08515722095538e-12
	72.4999999999989	2.859e-12	10
	1.08515722095538e-12	7.25016509929504e-11	-7.54726868377205e-11
	1.08515722095538e-12	1.08515722095538e-12	0
	72.5
 90	1.28377682572076e-08	0	-1.0852088259477e-12
	72.4999999999989	2.859e-12	10
	1.0852088259477e-12	7.25050988317248e-11	-7.52453131622773e-11
	1.0852088259477e-12	1.0852088259477e-12	0
	72.5
 91	1.30377682572076e-08	0	-1.08508905786427e-12
	72.4999999999989	2.859e-12	10
	1.08508905786427e-12	7.24970968725456e-11	-7.54726868377205e-11
	1.08508905786427e-12	1.08508905786427e-12	0
	72.5
 92	1.32377682572076e-08	0	-1.08525623548043e-12
	72.4999999999989	2.859e-12	10
	1.08525623548043e-12	7.25082663629628e-11	-7.52453131622773e-11
	1.08525623548043e-12	1.08525623548043e-12	0
	72.5
 93	1.34377682572076e-08	0	-1.08510534273306e-12
	72.4999999999989	2.859e-12	10
	1.08510534273306e-12	7.24981848991016e-11	-7.54726868377205e-11
	1.08510534273306e-12	1.08510534273306e-12	0
	72.5
 94	1.36377682572076e-08	0	-1.0851921146798e-12
	72.4999999999989	2.859e-12	10
	1.0851921146798e-12	7.25039823165424e-11	-7.52453131622773e-11
	1.0851921146798e-12	1.0851921146798e-12	0
	72.5
 95	1.38377682572076e-08	0	-1.08515668222901e-12
	72.4999999999989	2.859e-12	10
	1.08515668222901e-12	7.25016149995015e-11	-7.54726868377205e-11
	1.08515668222901e-12	1.08515668222901e-12	0
	72.5
 96	1.40377682572076e-08	0	-1.08520780207391e-12
	72.4999999999989	2.859e-12	10
	1.08520780207391e-12	7.250503042455e-11	-7.52453131622773e-11
	1.08520780207391e-12	1.08520780207391e-12	0
	72.5
 97	1.42377682572076e-08	0	-1.08508877459557e-12
	72.4999999999989	2.859e-12	10
	1.08508877459557e-12	7.24970779467642e-11	-7.54726868377205e-11
	1.08508877459557e-12	1.08508877459557e-12	0
	72.5
 98	1.44377682572076e-08	0	-1.08525690356855e-12
	72.4999999999989	2.859e-12	10
	1.08525690356855e-12	7.25083109993447e-11	-7.52453131622773e-11
	1.08525690356855e-12	1.08525690356855e-12	0
	72.5
 99	1.46377682572076e-08	0	-1.08510606921441e-12
	72.4999999999989	2.859e-12	10
	1.08510606921441e-12	7.24982334368581e-11	-7.54726868377205e-11
	1.08510606921441e-12	1.08510606921441e-12	0
	72.5
 100	1.48377682572076e-08	0	-1.08519207177476e-12
	72.4999999999989	2.859e-12	10
	1.08519207177476e-12	7.25039794499654e-11	-7.52453131622773e-11
	1.08519207177476e-12	1.08519207177476e-12	0
	72.5
 101	1.50377682572076e-08	0	-1.08515603121646e-12
	72.4999999999989	2.859e-12	10
	1.08515603121646e-12	7.25015715039748e-11	-7.54726868377205e-11
