Title: // Class-D RF Power Amplifier - 300W, 13.56 MHz
Date: 8:35:15 PM, Sat Jun 27, 2026
Plotname: Transient Analysis `tran': time = (0 s -> 3 us)
Flags: real
No. Variables:       13
No. Points:    16809
Variables:	0	time	s
		1	L1:i	A plot=0 grid=0
		2	M1:vgs	V plot=0 grid=0
		3	M1:vds	V plot=0 grid=0
		4	M1:id	A plot=0 grid=0
		5	M2:vgs	V plot=0 grid=0
		6	M2:vds	V plot=0 grid=0
		7	M2:id	A plot=0 grid=0
		8	Vdd:i	A plot=0 grid=0
		9	mid	V plot=0 grid=0
		10	lc_out	V plot=0 grid=0
		11	rload	V plot=0 grid=0
		12	vdd	V plot=0 grid=0
Values:
 0	0	0	-33.391
	39.109	2.859e-12	0
	33.391	2.859e-12	-4.1968e-11
	33.391	33.391	0
	72.5
 1	5.23858225095302e-11	0	-33.4496480712266
	39.0503519287734	2.859e-12	0.261929112547651
	33.4496480712266	2.859e-12	-4.19093519287734e-11
	33.4496480712266	33.4496480712266	0
	72.5
 2	9.39975982357548e-11	0	-33.496245128504
	39.003754871496	2.859e-12	0.469987991178774
	33.496245128504	2.859e-12	-4.1862754871496e-11
	33.496245128504	33.496245128504	0
	72.5
 3	1.64894094647354e-10	-5.42101086242752e-20	-33.5756496816643
	38.9243503183357	2.859e-12	0.824470473236768
	33.5756496816643	2.859e-12	-4.17833503183357e-11
	33.5756496816643	33.5756496816643	0
	72.5
 4	3.06687087470551e-10	2.06829130708744e-23	-33.7345127929107
	38.7654872070893	2.859e-12	1.53343543735276
	33.7345127929107	2.859e-12	-4.16244872070893e-11
	33.7345127929107	33.7345127929107	0
	72.5
 5	5.06687087470551e-10	-3.46134113836597e-22	-33.9587120682818
	38.5412879317182	2.859e-12	2.53343543735276
	33.9587120682818	2.859e-12	-4.14002879317182e-11
	33.9587120682818	33.9587120682818	0
	72.5
 6	7.06687087470551e-10	-9.06618106025444e-20	-34.1418757981781
	38.3581242018219	2.859e-12	3.53343543735276
	34.1418757981781	0.768742935809831	-4.12171242018219e-11
	34.1418757981781	34.1418757981781	0
	72.5
 7	9.06687087470551e-10	-2.70926346553052e-19	-33.8159110248788
	38.6840889751212	2.859e-12	4.53343543735276
	33.8159110248788	9.50411025237036	-4.15430889751212e-11
	33.8159110248788	33.8159110248788	0
	72.5
 8	1.10668708747055e-09	-5.4113974196536e-19	-32.0379894217526
	40.4620105782474	2.859e-12	5.53343543735276
	32.0379894217526	27.9731775689309	-4.33210105782473e-11
	32.0379894217526	32.0379894217526	0
	72.5
 9	1.26431260595188e-09	-8.17483610490037e-19	-28.9825107497734
	43.5174892502266	2.859e-12	6.32156302975942
	28.9825107497734	49.3878779394767	-4.63764892502266e-11
	28.9825107497734	28.9825107497734	0
	72.5
 10	1.41564661119086e-09	-1.13536810848639e-18	-24.2066699339728
	48.2933300660272	2.859e-12	7.07823305595429
	24.2066699339728	75.6366963619042	-5.11523300660272e-11
	24.2066699339728	24.2066699339728	0
	72.5
 11	1.55892709563927e-09	-8.89662217576849e-16	-17.7525620174751
	54.7474379825249	2.859e-12	7.79463547819633
	17.7525620174751	105.624683519885	-5.76064379825249e-11
	17.7525620174751	17.7525620174751	0
	72.5
 12	1.70352897577866e-09	2.21801413479257e-18	-9.31904686862347
	63.1809531313765	2.859e-12	8.51764487889332
	9.31904686862347	140.954204184221	-6.60399531313765e-11
	9.31904686862347	9.31904686862347	0
	72.5
 13	1.74058785380633e-09	5.20044046559707e-16	-6.92447600239842
	65.5755239976016	2.859e-12	8.70293926903165
	6.92447600239842	150.827637397776	-6.84345239976016e-11
	6.92447600239842	6.92447600239842	0
	72.5
 14	1.77013588142569e-09	1.29303507743666e-16	-5.02380084328248
	67.4761991567175	2.859e-12	8.85067940712844
	5.02380084328248	156.616437721928	-7.03351991567175e-11
	5.02380084328248	5.02380084328248	0
	72.5
 15	1.79006677202444e-09	4.30381988163191e-18	-3.90810004504297
	68.591899954957	2.859e-12	8.9503338601222
	3.90810004504297	146.846252616496	-7.1450899954957e-11
	3.90810004504297	3.90810004504297	0
	72.5
 16	1.81336430673316e-09	-3.00997601062e-19	-2.84007891270354
	69.6599210872965	2.859e-12	9.06682153366582
	2.84007891270354	124.698207385376	-7.25189210872965e-11
	2.84007891270354	2.84007891270354	0
	72.5
 17	1.84320232631353e-09	-5.47105212896046e-18	-1.83720568872986
	70.6627943112701	2.859e-12	9.21601163156767
	1.83720568872986	92.3004875764203	-7.35217943112701e-11
	1.83720568872986	1.83720568872986	0
	72.5
 18	1.87569933908696e-09	-3.23342136606066e-18	-1.12761492415985
	71.3723850758402	2.859e-12	9.37849669543482
	1.12761492415985	62.328528601586	-7.42313850758401e-11
	1.12761492415985	1.12761492415985	0
	72.5
 19	1.91248559085007e-09	9.19932546481378e-18	-0.652474586672968
	71.847525413327	2.859e-12	9.56242795425033
	0.652474586672968	38.7422613801412	-7.4706525413327e-11
	0.652474586672968	0.652474586672968	0
	72.5
 20	1.94655991534873e-09	1.62164421945862e-17	-0.402793455985137
	72.0972065440149	2.859e-12	9.73279957674363
	0.402793455985137	25.0742683241142	-7.49562065440149e-11
	0.402793455985137	0.402793455985137	0
	72.5
 21	1.97327995767436e-09	1.34496089432741e-18	-0.283118462309665
	72.2168815376903	2.859e-12	9.86639978837181
	0.283118462309665	18.1574620826569	-7.50758815376903e-11
	0.283118462309665	0.283118462309665	0
	72.5
 22	2e-09	-2.10937845857013e-19	-0.204228358141161
	72.2957716418588	2.859e-12	10
	0.204228358141161	13.4419363896023	-7.51547716418588e-11
	0.204228358141161	0.204228358141161	0
	72.5
 23	2.0227335497746e-09	-1.53470451595257e-18	-0.15006521295223
	72.3499347870478	2.859e-12	10
	0.15006521295223	9.91657517518979	-7.52089347870478e-11
	0.15006521295223	0.15006521295223	0
	72.5
 24	2.04898516525003e-09	-3.06332692411543e-18	-0.0988986509140396
	72.401101349086	2.859e-12	10
	0.0988986509140396	6.56002583305179	-7.52601013490859e-11
	0.0988986509140396	0.0988986509140396	0
	72.5
 25	2.07518285894235e-09	5.09223417455935e-17	-0.0654951232012735
	72.4345048767987	2.859e-12	10
	0.0654951232012735	4.35499092706736	-7.52935048767987e-11
	0.0654951232012735	0.0654951232012735	0
	72.5
 26	2.12757824632697e-09	-4.72771898141412e-21	-0.0278902251962319
	72.4721097748038	2.859e-12	10
	0.0278902251962319	1.859619232764	-7.53311097748038e-11
	0.0278902251962319	0.0278902251962319	0
	72.5
 27	2.20347072326194e-09	-1.64294825624173e-19	-0.0074376433289579
	72.492562356671	2.859e-12	10
	0.0074376433289579	0.496655467783841	-7.5351562356671e-11
	0.0074376433289579	0.0074376433289579	0
	72.5
 28	2.30449728465328e-09	-5.58886937326822e-19	-0.000977497941254185
	72.4990225020588	2.859e-12	10
	0.000977497941254185	0.0653040563369396	-7.53580225020587e-11
	0.000977497941254185	0.000977497941254185	0
	72.5
 29	2.43765840371702e-09	3.37876066338846e-19	4.9551945762641e-06
	72.5000049551946	2.859e-12	10.0000049551946
	4.9551945762641e-06	0.000331067158296491	-7.53590049551946e-11
	-4.9551945762641e-06	-4.95519457626411e-06	0
	72.5
 30	2.63765840371702e-09	-5.83144793349363e-20	-1.10000868334663e-06
	72.4999988999913	2.859e-12	10
	1.10000868334663e-06	7.34939027439115e-05	-7.53589988999913e-11
	1.10000868334663e-06	1.10000868334663e-06	0
	72.5
 31	2.83765840371702e-09	-2.54727587545782e-18	5.86686847842827e-07
	72.5000005866869	2.859e-12	10.0000005866868
	5.86686847842827e-07	3.91977918782756e-05	-7.53590005866868e-11
	-5.86686847842827e-07	-5.86686847842827e-07	0
	72.5
 32	3.03765840371702e-09	2.67262163745126e-20	-1.20915772008774e-07
	72.4999998790842	2.859e-12	10
	1.20915772008774e-07	8.07863861126962e-06	-7.53589998790842e-11
	1.20915772008774e-07	1.20915772008774e-07	0
	72.5
 33	3.23765840371702e-09	-7.03857417287207e-21	2.49226357857171e-08
	72.5000000249226	2.859e-12	10.0000000249226
	2.49226357857171e-08	1.66513405610217e-06	-7.53590000249226e-11
	-2.49226357857171e-08	-2.49226357857171e-08	0
	72.5
 34	3.43765840371702e-09	9.48811911473831e-22	-5.13816071540032e-09
	72.4999999948618	2.859e-12	10
	5.13816071540032e-09	3.43291393726588e-07	-7.53589999948618e-11
	5.13816071540032e-09	5.13816071540032e-09	0
	72.5
 35	3.63765840371702e-09	-1.33602207707698e-22	1.0577568532747e-09
	72.5000000010578	2.859e-12	10.0000000010578
	1.0577568532747e-09	7.06709744324352e-08	-7.53590000010577e-11
	-1.0577568532747e-09	-1.0577568532747e-09	0
	72.5
 36	3.83765840371702e-09	-1.21421163365023e-22	1.03145826255232e-09
	72.5000000010315	2.859e-12	10.0000000010315
	1.03145826255232e-09	6.89139099171485e-08	-7.53590000010314e-11
	-1.03145826255232e-09	-1.03145826255232e-09	0
	72.5
 37	4.03765840371702e-09	-2.04965803626231e-23	-2.13909641098912e-10
	72.4999999997861	2.859e-12	10
	2.13909641098912e-10	1.42917559255479e-08	-7.53589999997861e-11
	2.13909641098912e-10	2.13909641098912e-10	0
	72.5
 38	4.23765840371702e-09	1.0352863689319e-23	4.27815882975775e-11
	72.5000000000428	2.859e-12	10.0000000000428
	4.27815882975775e-11	2.85832847423617e-09	-7.53590000000428e-11
	-4.27815882975775e-11	-4.27815882975771e-11	0
	72.5
 39	4.43765840371702e-09	-2.40305160749936e-24	-1.01268930715142e-11
	72.4999999999899	2.859e-12	10
	1.01268930715142e-11	6.76599162715757e-10	-7.53589999999899e-11
	1.01268930715142e-11	1.01268930715142e-11	0
	72.5
 40	4.63765840371702e-09	7.9267785073969e-25	7.78510023736467e-13
	72.5000000000008	2.859e-12	10.0000000000008
	7.78510023736467e-13	5.20139026358545e-11	-7.53590000000008e-11
	-7.78510023736467e-13	-7.78510023736518e-13	0
	72.5
 41	4.83765840371702e-09	8.77173627635165e-26	-1.46925076681845e-12
	72.4999999999985	2.859e-12	10
	1.46925076681845e-12	9.81637538413188e-11	-7.53589999999985e-11
	1.46925076681845e-12	1.46925076681845e-12	0
	72.5
 42	5.03765840371702e-09	3.15602976137732e-26	-1.00613850119171e-12
	72.499999999999	2.859e-12	10
	1.00613850119171e-12	6.7222243058706e-11	-7.5358999999999e-11
	1.00613850119171e-12	1.00613850119171e-12	0
	72.5
 43	5.23765840371702e-09	3.82119587568906e-27	-1.00781364736347e-12
	72.499999999999	2.859e-12	10
	1.00781364736347e-12	6.73341631203908e-11	-7.53021565811382e-11
	1.00781364736347e-12	1.00781364736347e-12	0
	72.5
 44	5.43765840371702e-09	1.26888328147876e-27	-1.10106851991751e-12
	72.4999999999989	2.859e-12	10
	1.10106851991751e-12	7.35647185576498e-11	-7.54726868377205e-11
	1.10106851991751e-12	1.10106851991751e-12	0
	72.5
 45	5.63765840371702e-09	-3.30447177247141e-28	-1.0818361972561e-12
	72.4999999999989	2.859e-12	10
	1.0818361972561e-12	7.22797663696582e-11	-7.52453131622773e-11
	1.0818361972561e-12	1.0818361972561e-12	0
	72.5
 46	5.83765840371702e-09	-9.76795500488648e-28	-1.08554066883018e-12
	72.4999999999989	2.859e-12	10
	1.08554066883018e-12	7.25272699571481e-11	-7.54726868377205e-11
	1.08554066883018e-12	1.08554066883018e-12	0
	72.5
 47	6.03765840371702e-09	-6.43165130360251e-29	-1.08509489409889e-12
	72.4999999999989	2.859e-12	10
	1.08509489409889e-12	7.24974868037351e-11	-7.52453131622773e-11
	1.08509489409889e-12	1.08509489409889e-12	0
	72.5
 48	6.23765840371702e-09	-1.6390915728219e-29	-1.08508900301052e-12
	72.4999999999989	2.859e-12	10
	1.08508900301052e-12	7.24970932076509e-11	-7.54726868377205e-11
	1.08508900301052e-12	1.08508900301052e-12	0
	72.5
 49	6.43765840371702e-09	1.84073481581704e-32	-1.0851592402182e-12
	72.4999999999989	2.859e-12	10
	1.0851592402182e-12	7.25017859041738e-11	-7.52453131622773e-11
	1.0851592402182e-12	1.0851592402182e-12	0
	72.5
 50	6.63765840371702e-09	6.886742975267e-31	-1.08507294912925e-12
	72.4999999999989	2.859e-12	10
	1.08507294912925e-12	7.249602061386e-11	-7.54726868377205e-11
	1.08507294912925e-12	1.08507294912925e-12	0
	72.5
 51	6.83765840371702e-09	1.39710322430682e-30	-1.08526902217799e-12
	72.4999999999989	2.859e-12	10
	1.08526902217799e-12	7.25091206692941e-11	-7.52453131622773e-11
	1.08526902217799e-12	1.08526902217799e-12	0
	72.5
 52	7.03765840371702e-09	2.14369412849854e-30	-1.08499179973451e-12
	72.4999999999989	2.859e-12	10
	1.08499179973451e-12	7.24905988510204e-11	-7.54726868377205e-11
	1.08499179973451e-12	1.08499179973451e-12	0
	72.5
 53	7.23765840371702e-09	2.92844701010184e-30	-1.08516355364747e-12
	72.4999999999989	2.859e-12	10
	1.08516355364747e-12	7.25020740935142e-11	-7.52453131622773e-11
	1.08516355364747e-12	1.08516355364747e-12	0
	72.5
 54	7.43765840371702e-09	-2.55952537265135e-30	-1.08513468669446e-12
	72.4999999999989	2.859e-12	10
	1.08513468669446e-12	7.2500145431278e-11	-7.54726868377205e-11
	1.08513468669446e-12	1.08513468669446e-12	0
	72.5
 55	7.63765840371702e-09	-1.6984485362248e-30	-1.08517055048474e-12
	72.4999999999989	2.859e-12	10
	1.08517055048474e-12	7.25025415670229e-11	-7.52453131622773e-11
	1.08517055048474e-12	1.08517055048474e-12	0
	72.5
 56	7.83765840371702e-09	-1.03488171655773e-32	-1.0851875400001e-12
	72.4999999999989	2.859e-12	10
	1.0851875400001e-12	7.25036766725075e-11	-7.54726868377205e-11
	1.0851875400001e-12	1.0851875400001e-12	0
	72.5
 57	8.03765840371702e-09	-5.90241574419693e-32	-1.08515360554433e-12
	72.4999999999989	2.859e-12	10
	1.08515360554433e-12	7.25014094396852e-11	-7.52453131622773e-11
	1.08515360554433e-12	1.08515360554433e-12	0
	72.5
 58	8.23765840371702e-09	1.27677705998551e-31	-1.08510719983786e-12
	72.4999999999989	2.859e-12	10
	1.08510719983786e-12	7.24983089762045e-11	-7.54726868377205e-11
	1.08510719983786e-12	1.08510719983786e-12	0
	72.5
 59	8.43765840371702e-09	5.49756773155984e-31	-1.08522736236742e-12
	72.4999999999989	2.859e-12	10
	1.08522736236742e-12	7.25063372891642e-11	-7.52453131622773e-11
	1.08522736236742e-12	1.08522736236742e-12	0
	72.5
 60	8.63765840371702e-09	1.20721304403033e-30	-1.08515570647188e-12
	72.4999999999989	2.859e-12	10
	1.08515570647188e-12	7.25015498071021e-11	-7.54726868377205e-11
	1.08515570647188e-12	1.08515570647188e-12	0
	72.5
 61	8.83765840371702e-09	-1.05539710226246e-30	-1.08529367321181e-12
	72.4999999999989	2.859e-12	10
	1.08529367321181e-12	7.25107676570451e-11	-7.52453131622773e-11
	1.08529367321181e-12	1.08529367321181e-12	0
	72.5
 62	9.03765840371702e-09	7.28135760457103e-32	-1.08507791556799e-12
	72.4999999999989	2.859e-12	10
	1.08507791556799e-12	7.24963524321453e-11	-7.54726868377205e-11
	1.08507791556799e-12	1.08507791556799e-12	0
	72.5
 63	9.23765840371702e-09	-1.71904216281325e-30	-1.08514132754751e-12
	72.4999999999989	2.859e-12	10
	1.08514132754751e-12	7.25005891207278e-11	-7.52453131622773e-11
	1.08514132754751e-12	1.08514132754751e-12	0
	72.5
 64	9.43765840371702e-09	-1.20077077071259e-31	-1.0851437251912e-12
	72.4999999999989	2.859e-12	10
	1.0851437251912e-12	7.25007493123777e-11	-7.54726868377205e-11
	1.0851437251912e-12	1.0851437251912e-12	0
	72.5
 65	9.63765840371702e-09	1.36543401945625e-31	-1.08511369435212e-12
	72.4999999999989	2.859e-12	10
	1.08511369435212e-12	7.24987428884497e-11	-7.52453131622773e-11
	1.08511369435212e-12	1.08511369435212e-12	0
	72.5
 66	9.83765840371702e-09	6.28541084679422e-31	-1.08522851832096e-12
	72.4999999999989	2.859e-12	10
	1.08522851832096e-12	7.25064145208671e-11	-7.54726868377205e-11
	1.08522851832096e-12	1.08522851832096e-12	0
	72.5
 67	1.0037658403717e-08	1.35591597113013e-30	-1.0851454272562e-12
	72.4999999999989	2.859e-12	10
	1.0851454272562e-12	7.25008630309435e-11	-7.52453131622773e-11
	1.0851454272562e-12	1.0851454272562e-12	0
	72.5
 68	1.0237658403717e-08	2.31866806129775e-30	-1.08528263386945e-12
	72.4999999999989	2.859e-12	10
	1.08528263386945e-12	7.25100300952137e-11	-7.54726868377205e-11
	1.08528263386945e-12	1.08528263386945e-12	0
	72.5
 69	1.0437658403717e-08	-2.79408988658581e-30	-1.08507746923624e-12
	72.4999999999989	2.859e-12	10
	1.08507746923624e-12	7.24963226117765e-11	-7.52453131622773e-11
	1.08507746923624e-12	1.08507746923624e-12	0
	72.5
 70	1.0637658403717e-08	4.95030385278373e-30	-1.0851498617206e-12
	72.4999999999989	2.859e-12	10
	1.0851498617206e-12	7.25011593068972e-11	-7.54726868377205e-11
	1.0851498617206e-12	1.0851498617206e-12	0
	72.5
 71	1.0837658403717e-08	3.08300312334003e-31	-1.08515003742608e-12
	72.4999999999989	2.859e-12	10
	1.08515003742608e-12	7.25011710461522e-11	-7.52453131622773e-11
	1.08515003742608e-12	1.08515003742608e-12	0
	72.5
 72	1.1037658403717e-08	4.31937280114985e-32	-1.08511087124481e-12
	72.4999999999989	2.859e-12	10
	1.08511087124481e-12	7.24985542706745e-11	-7.54726868377205e-11
	1.08511087124481e-12	1.08511087124481e-12	0
	72.5
 73	1.1237658403717e-08	-5.78181331509849e-31	-1.08522102729578e-12
	72.4999999999989	2.859e-12	10
	1.08522102729578e-12	7.25059140296182e-11	-7.52453131622773e-11
	1.08522102729578e-12	1.08522102729578e-12	0
	72.5
 74	1.1437658403717e-08	-4.71126848711409e-30	-1.08514237417186e-12
	72.4999999999989	2.859e-12	10
	1.08514237417186e-12	7.25006590479159e-11	-7.54726868377205e-11
	1.08514237417186e-12	1.08514237417186e-12	0
	72.5
 75	1.1637658403717e-08	3.42115036561902e-30	-1.08528679807153e-12
	72.4999999999989	2.859e-12	10
	1.08528679807153e-12	7.25103083143697e-11	-7.52453131622773e-11
	1.08528679807153e-12	1.08528679807153e-12	0
	72.5
 76	1.1837658403717e-08	-1.42447374038291e-30	-1.08508309026148e-12
	72.4999999999989	2.859e-12	10
	1.08508309026148e-12	7.24966981643713e-11	-7.54726868377205e-11
	1.08508309026148e-12	1.08508309026148e-12	0
	72.5
 77	1.2037658403717e-08	-3.15479079815581e-31	-1.08515038464566e-12
	72.4999999999989	2.859e-12	10
	1.08515038464566e-12	7.25011942446274e-11	-7.52453131622773e-11
	1.08515038464566e-12	1.08515038464566e-12	0
	72.5
 78	1.2237658403717e-08	4.372471055529e-31	-1.08514561942614e-12
	72.4999999999989	2.859e-12	10
	1.08514561942614e-12	7.25008758702237e-11	-7.54726868377205e-11
	1.08514561942614e-12	1.08514561942614e-12	0
	72.5
 79	1.2437658403717e-08	4.48439105015263e-32	-1.08510721868682e-12
	72.4999999999989	2.859e-12	10
	1.08510721868682e-12	7.24983102355434e-11	-7.52453131622773e-11
	1.08510721868682e-12	1.08510721868682e-12	0
	72.5
 80	1.2637658403717e-08	1.66275495591434e-30	-1.08522214637397e-12
	72.4999999999989	2.859e-12	10
	1.08522214637397e-12	7.2505988797601e-11	-7.54726868377205e-11
	1.08522214637397e-12	1.08522214637397e-12	0
	72.5
 81	1.2837658403717e-08	-1.01990699997674e-30	-1.08514630266736e-12
	72.4999999999989	2.859e-12	10
	1.08514630266736e-12	7.25009215190161e-11	-7.52453131622773e-11
	1.08514630266736e-12	1.08514630266736e-12	0
	72.5
 82	1.3037658403717e-08	1.46318890548041e-30	-1.08528869374349e-12
	72.4999999999989	2.859e-12	10
	1.08528869374349e-12	7.25104349682261e-11	-7.54726868377205e-11
	1.08528869374349e-12	1.08528869374349e-12	0
	72.5
 83	1.3237658403717e-08	2.80115543051771e-30	-1.0850811137331e-12
	72.4999999999989	2.859e-12	10
	1.0850811137331e-12	7.24965661083262e-11	-7.52453131622773e-11
	1.0850811137331e-12	1.0850811137331e-12	0
	72.5
 84	1.3437658403717e-08	2.99399257513516e-30	-1.08514733291616e-12
	72.4999999999989	2.859e-12	10
	1.08514733291616e-12	7.25009903521195e-11	-7.54726868377205e-11
	1.08514733291616e-12	1.08514733291616e-12	0
	72.5
 85	1.3637658403717e-08	-1.1137432815513e-30	-1.08514509152094e-12
	72.4999999999989	2.859e-12	10
	1.08514509152094e-12	7.25008405997597e-11	-7.52453131622773e-11
	1.08514509152094e-12	1.08514509152094e-12	0
	72.5
 86	1.3837658403717e-08	-5.57212768895219e-32	-1.08510943955348e-12
	72.4999999999989	2.859e-12	10
	1.08510943955348e-12	7.24984586163462e-11	-7.54726868377205e-11
	1.08510943955348e-12	1.08510943955348e-12	0
	72.5
 87	1.4037658403717e-08	-1.42828652647597e-31	-1.08522420832169e-12
	72.4999999999989	2.859e-12	10
	1.08522420832169e-12	7.25061265606925e-11	-7.52453131622773e-11
	1.08522420832169e-12	1.08522420832169e-12	0
	72.5
 88	1.4237658403717e-08	-4.53050902970958e-30	-1.08514590387512e-12
	72.4999999999989	2.859e-12	10
	1.08514590387512e-12	7.25008948748626e-11	-7.54726868377205e-11
	1.08514590387512e-12	1.08514590387512e-12	0
	72.5
 89	1.4437658403717e-08	-5.96987924539267e-31	-1.0852866449873e-12
	72.4999999999989	2.859e-12	10
	1.0852866449873e-12	7.25102980864881e-11	-7.52453131622773e-11
	1.0852866449873e-12	1.0852866449873e-12	0
	72.5
 90	1.4637658403717e-08	-9.64039820672861e-31	-1.0850799673877e-12
	72.4999999999989	2.859e-12	10
	1.0850799673877e-12	7.24964895185637e-11	-7.54726868377205e-11
	1.0850799673877e-12	1.0850799673877e-12	0
	72.5
 91	1.4837658403717e-08	6.79222523657737e-31	-1.08514824923227e-12
	72.4999999999989	2.859e-12	10
	1.08514824923227e-12	7.25010515731382e-11	-7.52453131622773e-11
	1.08514824923227e-12	1.08514824923227e-12	0
	72.5
