Title: // Class-D RF Power Amplifier - 300W, 13.56 MHz
Date: 9:10:39 PM, Sat Jun 27, 2026
Plotname: Transient Analysis `tran': time = (0 s -> 3 us)
Flags: real
No. Variables:       13
No. Points:    16807
Variables:	0	time	s
		1	L1:i	A plot=0 grid=0
		2	M1:vgs	V plot=0 grid=0
		3	M1:vds	V plot=0 grid=0
		4	M1:id	A plot=0 grid=0
		5	M2:vgs	V plot=0 grid=0
		6	M2:vds	V plot=0 grid=0
		7	M2:id	A plot=0 grid=0
		8	Vdd:i	A plot=0 grid=0
		9	mid	V plot=0 grid=0
		10	lc_out	V plot=0 grid=0
		11	rload	V plot=0 grid=0
		12	vdd	V plot=0 grid=0
Values:
 0	0	0	-33.391
	39.109	2.859e-12	0
	33.391	2.859e-12	-4.1968e-11
	33.391	33.391	0
	72.5
 1	1.38908888754464e-11	0	-33.1572093689981
	38.787155075984	2.859e-12	0
	33.712844924016	2.859e-12	16.7583199999583
	33.712844924016	33.712844924016	0
	72.5
 2	2.74345138833391e-11	0	-32.9296919628734
	38.472927481793	2.859e-12	0
	34.027072518207	2.859e-12	16.7583199999577
	34.027072518207	34.027072518207	0
	72.5
 3	5.45217638991245e-11	3.46944695195361e-18	-32.4754858870938
	37.8436435569412	2.859e-12	0
	34.6563564430588	2.859e-12	16.758319999961
	34.6563564430588	34.6563564430588	0
	72.5
 4	1.08696263930695e-10	0	-31.5703067158364
	36.5818427269358	2.859e-12	0
	35.9181572730642	2.859e-12	16.7583199999591
	35.9181572730642	35.9181572730642	0
	72.5
 5	2.17045263993837e-10	6.16297582203915e-33	-29.7722661160723
	34.0459233241743	2.859e-12	0
	38.4540766758257	2.859e-12	16.7583199999644
	38.4540766758257	38.4540766758257	0
	72.5
 6	4.17045263993837e-10	-3.45471172817839e-18	-26.4927764417798
	29.3254129984667	2.859e-12	0
	43.1745870015333	2.859e-12	16.7583199999666
	43.1745870015333	43.1745870015333	0
	72.5
 7	6.17045263993837e-10	2.48680387618974e-18	-23.2588815013374
	24.5593079389091	2.859e-12	0
	47.9406920610909	2.859e-12	16.7583199999739
	47.9406920610909	47.9406920610909	0
	72.5
 8	8.17045263993837e-10	3.94675900528995e-18	-20.0651079604758
	19.7530814797707	2.859e-12	0
	52.7469185202293	2.859e-12	16.7583199999761
	52.7469185202293	52.7469185202293	0
	72.5
 9	1.01704526399384e-09	9.25153659122222e-19	-16.9069970900192
	14.9111923502274	2.859e-12	0
	57.5888076497726	2.859e-12	16.7583199999834
	57.5888076497726	57.5888076497726	0
	72.5
 10	1.21704526399384e-09	-6.57801216231343e-18	-13.7808594846601
	10.0373299555864	2.859e-12	0
	62.4626700444136	2.859e-12	16.7583199999858
	62.4626700444136	62.4626700444136	0
	72.5
 11	1.41704526399384e-09	2.25394325270468e-18	-10.6836011393943
	5.1345883008522	2.859e-12	0
	67.3654116991478	2.859e-12	16.7583199999933
	67.3654116991478	67.3654116991478	0
	72.5
 12	1.61704526399384e-09	-3.34555711452361e-19	-7.61259702744643
	0.205592412800115	2.859e-12	0
	72.2944075871999	2.859e-12	16.7583199999955
	72.2944075871999	72.2944075871999	0
	72.5
 13	1.81704526399384e-09	-4.65721246970107e-19	0.181810559753444
	4.74740779020865	2.859e-12	0
	77.2474077902087	2.859e-12	16.7583200000033
	77.2474077902087	77.2474077902087	0
	72.5
 14	1.90852263199692e-09	2.93301769468243e-19	3.84090527987674
	6.95684855208206	2.41829617094677	0
	79.4568485520821	2.859e-12	25.8466345594419
	79.4568485520821	79.4568485520821	0
	72.5
 15	2e-09	1.5664056266125e-18	7.5
	6.73648695252477	92.6867053576029	0
	79.2364869525248	2.859e-12	137.398423426901
	79.2364869525248	79.2364869525248	0
	72.5
 16	2.01996341910777e-09	1.84423943865474e-18	7.5
	5.67526299193338	92.6867053576029	0
	78.1752629919334	2.859e-12	92.6867053576028
	78.1752629919334	78.1752629919334	0
	72.5
 17	2.0598902573233e-09	2.39990706273921e-18	7.5
	3.62650150632332	90.0396060380776	0
	76.1265015063233	2.859e-12	88.8839489383351
	76.1265015063233	76.1265015063233	0
	72.5
 18	2.0983536608231e-09	-5.25759433785698e-17	7.5
	2.12696519683021	68.3314076398539	0
	74.6269651968302	2.859e-12	62.1859590000239
	74.6269651968302	74.6269651968302	0
	72.5
 19	2.15020258556924e-09	-2.12893690837051e-16	7.5
	0.89724451619071	34.194986540773	0
	73.3972445161907	2.859e-12	33.8734397202848
	73.3972445161907	73.3972445161907	0
	72.5
 20	2.17612704794231e-09	2.91973483201612e-19	7.5
	0.564884505491207	22.442103692202	0
	73.0648845054912	2.859e-12	18.8680978577018
	73.0648845054912	73.0648845054912	0
	72.5
 21	2.22797597268845e-09	-1.360391955558e-17	7.5
	0.204636867876573	8.48873219994196	0
	72.7046368678766	2.859e-12	9.87010394473905
	72.7046368678766	72.7046368678766	0
	72.5
 22	2.2455981126006e-09	1.62912802348696e-20	7.5
	0.14695575395335	6.13726248037734	0
	72.6469557539533	2.859e-12	3.708129776955
	72.6469557539533	72.6469557539533	0
	72.5
 23	2.2808423924249e-09	-1.20420155963218e-18	7.5
	0.0740396396972898	3.11836652250883	0
	72.5740396396973	2.859e-12	4.88166781152824
	72.5740396396973	72.5740396396973	0
	72.5
 24	2.35133095207349e-09	4.72351081069684e-19	7.5
	0.0149752126569496	0.6350236633946	0
	72.5149752126569	2.859e-12	-1.39963398633549
	72.5149752126569	72.5149752126569	0
	72.5
 25	2.47579634557301e-09	-7.51160003201808e-20	7.50122196001598
	0.0012219600159824	0.0519135219103355	0
	72.498778039984	2.859e-12	1.94066107165363
	72.498778039984	72.498778039984	0
	72.5
 26	2.64681330871133e-09	1.07421310475552e-19	7.5
	0.00028835293413465	0.012248212864425	0
	72.5002883529341	2.859e-12	-1.97738345605211
	72.5002883529341	72.5002883529341	0
	72.5
 27	2.84681330871133e-09	-4.1195031770872e-20	7.50008853194488
	8.85319448826749e-05	0.00376068631103944	0
	72.4999114680551	2.859e-12	1.98521971682777
	72.4999114680551	72.4999114680551	0
	72.5
 28	3.04681330871133e-09	1.32976017258392e-17	7.5
	2.67940068994221e-05	0.00113814876496779	0
	72.5000267940069	2.859e-12	-1.98761831256169
	72.5000267940069	72.5000267940069	0
	72.5
 29	3.24681330871133e-09	-1.50955184013765e-18	7.50000831747279
	8.31747279050887e-06	0.000353308840857264	0
	72.4999916825272	2.859e-12	1.98834820314501
	72.4999916825272	72.4999916825272	0
	72.5
 30	3.44681330871133e-09	6.40154645695616e-19	7.5
	2.56909201823419e-06	0.000109129519284147	0
	72.500002569092	2.859e-12	-1.98857453326523
	72.500002569092	72.500002569092	0
	72.5
 31	3.64681330871133e-09	-2.02598790394303e-19	7.50000079470647
	7.94706465967465e-07	3.37574413391646e-05	0
	72.4999992052935	2.859e-12	1.98864446387597
	72.4999992052935	72.4999992052935	0
	72.5
 32	3.84681330871133e-09	-2.62641102110393e-20	7.5
	2.45713067670295e-07	1.04373695246825e-05	0
	72.5000002457131	2.859e-12	-1.98866609375223
	72.5000002457131	72.5000002457131	0
	72.5
 33	4.04681330871133e-09	-2.34637034886473e-20	7.50000007598504
	7.59850422582531e-08	3.22768539093831e-06	0
	72.499999924015	2.859e-12	1.98867278148719
	72.499999924015	72.499999924015	0
	72.5
 34	4.24681330871133e-09	-4.46219004216371e-21	7.5
	2.34936550214115e-08	9.97963204958404e-07	0
	72.5000000234937	2.859e-12	-1.98867484974932
	72.5000000234937	72.5000000234937	0
	72.5
 35	4.44681330871133e-09	3.63537581627381e-21	7.5000000072672
	7.26720372767886e-09	3.08698171209836e-07	0
	72.4999999927328	2.859e-12	1.98867548908605
	72.4999999927328	72.4999999927328	0
	72.5
 36	4.64681330871133e-09	-8.65071807843336e-22	7.5
	2.24477503252274e-09	9.53561138029424e-08	0
	72.5000000022448	2.859e-12	-1.98867568699619
	72.5000000022448	72.5000000022448	0
	72.5
 37	4.84681330871133e-09	2.47675451452305e-22	7.50000000069655
	6.96545043865626e-10	2.95906065958855e-08	0
	72.4999999993035	2.859e-12	1.98867574798226
	72.4999999993035	72.4999999993035	0
	72.5
 38	5.04681330871133e-09	9.14748977195473e-23	7.5
	2.12978079616732e-10	9.0497134970586e-09	0
	72.500000000213	2.859e-12	-1.98867576705276
	72.500000000213	72.500000000213	0
	72.5
 39	5.24681330871133e-09	-1.01844889567662e-23	7.50000000006827
	6.82689460518304e-11	2.90277819698872e-09	0
	72.4999999999317	2.859e-12	1.98867577273755
	72.4999999999317	72.4999999999317	0
	72.5
 40	5.44681330871133e-09	-1.75980391740899e-23	7.5
	1.87014848052058e-11	7.97258180516055e-10	0
	72.5000000000187	2.859e-12	-1.98867577470775
	72.5000000000187	72.5000000000187	0
	72.5
 41	5.64681330871133e-09	-2.48924386878126e-25	7.5000000000082
	8.19966317067156e-12	3.51163199968979e-10	0
	72.4999999999918	2.859e-12	1.98867577510459
	72.4999999999918	72.4999999999918	0
	72.5
 42	5.84681330871133e-09	-3.23355835335226e-25	7.5
	1.27897692436818e-13	8.29182114335844e-12	0
	72.5000000000001	2.859e-12	-1.9886757754398
	72.5000000000001	72.5000000000001	0
	72.5
 43	6.04681330871133e-09	-3.69503495711412e-26	7.50000000000246
	2.45847786572995e-12	1.07289895311254e-10	0
	72.4999999999975	2.859e-12	1.98867577533118
	72.4999999999975	72.4999999999975	0
	72.5
 44	6.24681330871133e-09	-1.00933890006413e-26	7.50000000000165
	1.64845914696343e-12	7.28820280699675e-11	0
	72.4999999999984	2.859e-12	-1.98867577551013
	72.4999999999984	72.4999999999984	0
	72.5
 45	6.44681330871133e-09	-1.01404063431877e-26	7.5000000000019
	1.90425453183707e-12	8.3747670356689e-11	0
	72.4999999999981	2.859e-12	1.98867577535323
	72.4999999999981	72.4999999999981	0
	72.5
 46	6.64681330871133e-09	1.68268961464299e-27	7.50000000000182
	1.81898940354586e-12	8.01257895944484e-11	0
	72.4999999999982	2.859e-12	-1.98867577551712
	72.4999999999982	72.4999999999982	0
	72.5
 47	6.84681330871133e-09	-4.73495269431446e-28	7.50000000000185
	1.84741111297626e-12	8.1333083181862e-11	0
	72.4999999999982	2.859e-12	1.98867577535561
	72.4999999999982	72.4999999999982	0
	72.5
 48	7.04681330871133e-09	3.54703910461642e-28	7.50000000000183
	1.83320025826106e-12	8.07294363881552e-11	0
	72.4999999999982	2.859e-12	-1.98867577551787
	72.4999999999982	72.4999999999982	0
	72.5
 49	7.24681330871133e-09	1.28319319590677e-28	7.50000000000185
	1.84741111297626e-12	8.1333083181862e-11	0
	72.4999999999982	2.859e-12	1.98867577535586
	72.4999999999982	72.4999999999982	0
	72.5
 50	7.44681330871133e-09	5.90413083751351e-29	7.50000000000183
	1.83320025826106e-12	8.07294363881552e-11	0
	72.4999999999982	2.859e-12	-1.98867577551816
	72.4999999999982	72.4999999999982	0
	72.5
 51	7.64681330871133e-09	-5.50785149215639e-29	7.50000000000185
	1.84741111297626e-12	8.1333083181862e-11	0
	72.4999999999982	2.859e-12	1.98867577535616
	72.4999999999982	72.4999999999982	0
	72.5
 52	7.84681330871133e-09	-1.20917585628408e-29	7.50000000000183
	1.83320025826106e-12	8.07294363881552e-11	0
	72.4999999999982	2.859e-12	-1.9886757755185
	72.4999999999982	72.4999999999982	0
	72.5
 53	8.04681330871133e-09	-1.39468142852746e-29	7.50000000000185
	1.84741111297626e-12	8.1333083181862e-11	0
	72.4999999999982	2.859e-12	1.9886757753565
	72.4999999999982	72.4999999999982	0
	72.5
 54	8.24681330871133e-09	-6.06436820888653e-29	7.50000000000183
	1.83320025826106e-12	8.07294363881552e-11	0
	72.4999999999982	2.859e-12	-1.98867577551884
	72.4999999999982	72.4999999999982	0
	72.5
 55	8.44681330871133e-09	4.97660297629662e-29	7.50000000000185
	1.84741111297626e-12	8.1333083181862e-11	0
	72.4999999999982	2.859e-12	1.98867577535685
	72.4999999999982	72.4999999999982	0
	72.5
 56	8.64681330871133e-09	-8.66144622029383e-29	7.50000000000183
	1.83320025826106e-12	8.07294363881552e-11	0
	72.4999999999982	2.859e-12	-1.98867577551918
	72.4999999999982	72.4999999999982	0
	72.5
 57	8.84681330871133e-09	-6.58883745134206e-29	7.50000000000185
	1.84741111297626e-12	8.1333083181862e-11	0
	72.4999999999982	2.859e-12	1.98867577535719
	72.4999999999982	72.4999999999982	0
	72.5
 58	9.04681330871133e-09	-9.00040989050598e-29	7.50000000000183
	1.83320025826106e-12	8.07294363881552e-11	0
	72.4999999999982	2.859e-12	-1.98867577551952
	72.4999999999982	72.4999999999982	0
	72.5
 59	9.24681330871133e-09	4.29867563587231e-29	7.50000000000185
	1.84741111297626e-12	8.1333083181862e-11	0
	72.4999999999982	2.859e-12	1.98867577535753
	72.4999999999982	72.4999999999982	0
	72.5
 60	9.44681330871133e-09	-7.08125921952299e-29	7.50000000000183
	1.83320025826106e-12	8.07294363881552e-11	0
	72.4999999999982	2.859e-12	-1.98867577551986
	72.4999999999982	72.4999999999982	0
	72.5
 61	9.64681330871133e-09	-2.75053610937607e-29	7.50000000000185
	1.84741111297626e-12	8.1333083181862e-11	0
	72.4999999999982	2.859e-12	1.98867577535787
	72.4999999999982	72.4999999999982	0
	72.5
 62	9.84681330871133e-09	-2.90399420734485e-29	7.50000000000183
	1.83320025826106e-12	8.07294363881552e-11	0
	72.4999999999982	2.859e-12	-1.9886757755202
	72.4999999999982	72.4999999999982	0
	72.5
 63	1.00468133087113e-08	-7.54163351342931e-29	7.50000000000185
	1.84741111297626e-12	8.1333083181862e-11	0
	72.4999999999982	2.859e-12	1.98867577535821
	72.4999999999982	72.4999999999982	0
	72.5
 64	1.02468133087113e-08	3.53138514602844e-29	7.50000000000183
	1.83320025826106e-12	8.07294363881552e-11	0
	72.4999999999982	2.859e-12	-1.98867577552054
	72.4999999999982	72.4999999999982	0
	72.5
 65	1.04468133087113e-08	-1.00746165762874e-28	7.50000000000185
	1.84741111297626e-12	8.1333083181862e-11	0
	72.4999999999982	2.859e-12	1.98867577535855
	72.4999999999982	72.4999999999982	0
	72.5
 66	1.06468133087113e-08	-7.96996033306103e-29	7.50000000000183
	1.83320025826106e-12	8.07294363881552e-11	0
	72.4999999999982	2.859e-12	-1.98867577552089
	72.4999999999982	72.4999999999982	0
	72.5
 67	1.08468133087113e-08	9.84535387570755e-29	7.50000000000185
	1.84741111297626e-12	8.1333083181862e-11	0
	72.4999999999982	2.859e-12	1.98867577535889
	72.4999999999982	72.4999999999982	0
	72.5
 68	1.10468133087113e-08	2.98164770270254e-29	7.50000000000183
	1.83320025826106e-12	8.07294363881552e-11	0
	72.4999999999982	2.859e-12	-1.98867577552123
	72.4999999999982	72.4999999999982	0
	72.5
 69	1.12468133087113e-08	-8.36623967841815e-29	7.50000000000185
	1.84741111297626e-12	8.1333083181862e-11	0
	72.4999999999982	2.859e-12	1.98867577535923
	72.4999999999982	72.4999999999982	0
	72.5
 70	1.14468133087113e-08	-4.00346909399663e-29	7.50000000000183
	1.83320025826106e-12	8.07294363881552e-11	0
	72.4999999999982	2.859e-12	-1.98867577552157
	72.4999999999982	72.4999999999982	0
	72.5
 71	1.16468133087113e-08	-4.12487971769081e-29	7.50000000000185
	1.84741111297626e-12	8.1333083181862e-11	0
	72.4999999999982	2.859e-12	1.98867577535957
	72.4999999999982	72.4999999999982	0
	72.5
 72	1.18468133087113e-08	-8.73047154950067e-29	7.50000000000183
	1.83320025826106e-12	8.07294363881552e-11	0
	72.4999999999982	2.859e-12	-1.98867577552191
	72.4999999999982	72.4999999999982	0
	72.5
 73	1.20468133087113e-08	2.37459458423169e-29	7.50000000000185
	1.84741111297626e-12	8.1333083181862e-11	0
	72.4999999999982	2.859e-12	1.98867577535992
	72.4999999999982	72.4999999999982	0
	72.5
 74	1.22468133087113e-08	8.99547950984835e-29	7.50000000000183
	1.83320025826106e-12	8.07294363881552e-11	0
	72.4999999999982	2.859e-12	-1.98867577552225
	72.4999999999982	72.4999999999982	0
	72.5
 75	1.24468133087113e-08	-9.06265594630858e-29	7.50000000000185
	1.84741111297626e-12	8.1333083181862e-11	0
	72.4999999999982	2.859e-12	1.98867577536026
	72.4999999999982	72.4999999999982	0
	72.5
 76	1.26468133087113e-08	8.78470573673461e-29	7.50000000000183
	1.83320025826106e-12	8.07294363881552e-11	0
	72.4999999999982	2.859e-12	-1.98867577552259
	72.4999999999982	72.4999999999982	0
	72.5
 77	1.28468133087113e-08	1.95304703800421e-29	7.50000000000185
	1.84741111297626e-12	8.1333083181862e-11	0
	72.4999999999982	2.859e-12	1.9886757753606
	72.4999999999982	72.4999999999982	0
	72.5
 78	1.30468133087113e-08	-9.36279286884188e-29	7.50000000000183
	1.83320025826106e-12	8.07294363881552e-11	0
	72.4999999999982	2.859e-12	-1.98867577552293
	72.4999999999982	72.4999999999982	0
	72.5
 79	1.32468133087113e-08	-4.96797481014576e-29	7.50000000000185
	1.84741111297626e-12	8.1333083181862e-11	0
	72.4999999999982	2.859e-12	1.98867577536094
	72.4999999999982	72.4999999999982	0
	72.5
 80	1.34468133087113e-08	-5.05733795956533e-29	7.50000000000183
	1.83320025826106e-12	8.07294363881552e-11	0
	72.4999999999982	2.859e-12	-1.98867577552327
	72.4999999999982	72.4999999999982	0
	72.5
 81	1.36468133087113e-08	-9.63088231710059e-29	7.50000000000185
	1.84741111297626e-12	8.1333083181862e-11	0
	72.4999999999982	2.859e-12	1.98867577536128
	72.4999999999982	72.4999999999982	0
	72.5
 82	1.38468133087113e-08	1.50623129090637e-29	7.50000000000183
	1.83320025826106e-12	8.07294363881552e-11	0
	72.4999999999982	2.859e-12	-1.98867577552361
	72.4999999999982	72.4999999999982	0
	72.5
 83	1.40468133087113e-08	8.15916369079764e-29	7.50000000000185
	1.84741111297626e-12	8.1333083181862e-11	0
	72.4999999999982	2.859e-12	1.98867577536162
	72.4999999999982	72.4999999999982	0
	72.5
 84	1.42468133087113e-08	-9.86692429108469e-29	7.50000000000183
	1.83320025826106e-12	8.07294363881552e-11	0
	72.4999999999982	2.859e-12	-1.98867577552396
	72.4999999999982	72.4999999999982	0
	72.5
 85	1.44468133087113e-08	8.01248486623311e-29	7.50000000000185
	1.84741111297626e-12	8.1333083181862e-11	0
	72.4999999999982	2.859e-12	1.98867577536196
	72.4999999999982	72.4999999999982	0
	72.5
 86	1.46468133087113e-08	2.14077128154352e-28	7.50000000000183
	1.83320025826106e-12	8.07294363881552e-11	0
	72.4999999999982	2.859e-12	-1.9886757755243
	72.4999999999982	72.4999999999982	0
	72.5
 87	1.48468133087113e-08	-1.00709187907942e-28	7.50000000000185
	1.84741111297626e-12	8.1333083181862e-11	0
	72.4999999999982	2.859e-12	1.9886757753623
	72.4999999999982	72.4999999999982	0
	72.5
 88	1.50468133087113e-08	-4.60337316051385e-28	7.50000000000185
	1.84741111297626e-12	8.1333083181862e-11	0
	72.4999999999982	2.859e-12	-1.9886757755247
	72.4999999999982	72.4999999999982	0
	72.5
 89	1.52468133087113e-08	-5.70136893296625e-29	7.50000000000185
	1.84741111297626e-12	8.1333083181862e-11	0
	72.4999999999982	2.859e-12	1.98867577536234
	72.4999999999982	72.4999999999982	0
	72.5
 90	1.54468133087113e-08	-1.0242865816225e-28	7.50000000000185
	1.84741111297626e-12	8.1333083181862e-11	0
	72.4999999999982	2.859e-12	-1.98867577552468
	72.4999999999982	72.4999999999982	0
	72.5
 91	1.56468133087113e-08	-9.1711243207699e-29	7.50000000000185
	1.84741111297626e-12	8.1333083181862e-11	0
	72.4999999999982	2.859e-12	1.98867577536234
	72.4999999999982	72.4999999999982	0
	72.5
 92	1.58468133087113e-08	-1.258356403343e-28	7.50000000000185
	1.84741111297626e-12	8.1333083181862e-11	0
	72.4999999999982	2.859e-12	-1.98867577552468
	72.4999999999982	72.4999999999982	0
	72.5
 93	1.60468133087113e-08	-1.03827653673762e-28	7.50000000000185
	1.84741111297626e-12	8.1333083181862e-11	0
	72.4999999999982	2.859e-12	1.98867577536234
	72.4999999999982	72.4999999999982	0
	72.5
 94	1.62468133087113e-08	-1.26661479094376e-28	7.50000000000185
	1.84741111297626e-12	8.1333083181862e-11	0
	72.4999999999982	2.859e-12	-1.98867577552468
	72.4999999999982	72.4999999999982	0
	72.5
 95	1.64468133087113e-08	-9.33629207278518e-29	7.50000000000185
	1.84741111297626e-12	8.1333083181862e-11	0
	72.4999999999982	2.859e-12	1.98867577536234
	72.4999999999982	72.4999999999982	0
	72.5
 96	1.66468133087113e-08	-1.04906174442479e-28	7.50000000000185
	1.84741111297626e-12	8.1333083181862e-11	0
	72.4999999999982	2.859e-12	-1.98867577552468
	72.4999999999982	72.4999999999982	0
	72.5
 97	1.68468133087113e-08	-6.03170443699688e-29	7.50000000000185
	1.84741111297626e-12	8.1333083181862e-11	0
	72.4999999999982	2.859e-12	1.98867577536234
	72.4999999999982	72.4999999999982	0
	72.5
 98	1.70468133087113e-08	-6.056972637861e-29	7.50000000000185
	1.84741111297626e-12	8.1333083181862e-11	0
	72.4999999999982	2.859e-12	-1.98867577552468
	72.4999999999982	72.4999999999982	0
	72.5
 99	1.72468133087113e-08	-1.05664220468403e-28	7.50000000000185
	1.84741111297626e-12	8.1333083181862e-11	0
	72.4999999999982	2.859e-12	1.98867577536234
	72.4999999999982	72.4999999999982	0
	72.5
 100	1.74468133087113e-08	-9.46263307710577e-29	7.50000000000185
	1.84741111297626e-12	8.1333083181862e-11	0
	72.4999999999982	2.859e-12	-1.98867577552468
	72.4999999999982	72.4999999999982	0
	72.5
 101	1.76468133087113e-08	-1.28430253154864e-28	7.50000000000185
	1.84741111297626e-12	8.1333083181862e-11	0
	72.4999999999982	2.859e-12	1.98867577536234
	72.4999999999982	72.4999999999982	0
	72.5
 102	1.78468133087113e-08	-1.06101791751533e-28	7.50000000000185
	1.84741111297626e-12	8.1333083181862e-11	0
	72.4999999999982	2.859e-12	-1.98867577552468
